1



                                 *********************************************

                                    NUMERICAL ELECTROMAGNETICS CODE (NEC-2D)

                                 *********************************************




                                     - - - - COMMENTS - - - -


                          Antena dipolo com freqęncia de 600MHz                                      
                                                                                                     
                                                                                                     
                          forw: 90, 0 ; back:-90, 0                                                  
                                                                                                     




                                 - - - STRUCTURE SPECIFICATION - - -

                                     COORDINATES MUST BE INPUT IN
                                     METERS OR BE SCALED TO METERS
                                     BEFORE STRUCTURE INPUT IS ENDED


  WIRE                                                                               NO. OF    FIRST  LAST     TAG
  NO.        X1         Y1         Z1          X2         Y2         Z2      RADIUS   SEG.     SEG.   SEG.     NO.
     1    0.00000    0.00000   -0.12000     0.00000    0.00000    0.12000    0.00010      9        1     9       1

   TOTAL SEGMENTS USED=    9     NO. SEG. IN A SYMMETRIC CELL=    9     SYMMETRY FLAG=  0


         - MULTIPLE WIRE JUNCTIONS -
 JUNCTION    SEGMENTS  (- FOR END 1, + FOR END 2)
  NONE




                                 - - - - SEGMENTATION DATA - - - -

                                        COORDINATES IN METERS

                         I+ AND I- INDICATE THE SEGMENTS BEFORE AND AFTER I


  SEG.   COORDINATES OF SEG. CENTER     SEG.     ORIENTATION ANGLES    WIRE    CONNECTION DATA   TAG
  NO.       X         Y         Z       LENGTH     ALPHA     BETA      RADIUS    I-   I    I+    NO.
     1   0.00000   0.00000  -0.10667   0.02667   90.00000   0.00000   0.00010     0    1    2      1
     2   0.00000   0.00000  -0.08000   0.02667   90.00000   0.00000   0.00010     1    2    3      1
     3   0.00000   0.00000  -0.05333   0.02667   90.00000   0.00000   0.00010     2    3    4      1
     4   0.00000   0.00000  -0.02667   0.02667   90.00000   0.00000   0.00010     3    4    5      1
     5   0.00000   0.00000   0.00000   0.02667   90.00000   0.00000   0.00010     4    5    6      1
     6   0.00000   0.00000   0.02667   0.02667   90.00000   0.00000   0.00010     5    6    7      1
     7   0.00000   0.00000   0.05333   0.02667   90.00000   0.00000   0.00010     6    7    8      1
     8   0.00000   0.00000   0.08000   0.02667   90.00000   0.00000   0.00010     7    8    9      1
     9   0.00000   0.00000   0.10667   0.02667   90.00000   0.00000   0.00010     8    9    0      1






 ***** DATA CARD NO.  1   GN  -1     0     0     0  0.00000E+00  0.00000E+00  0.00000E+00  0.00000E+00  0.00000E+00  0.00000E+00
 ***** DATA CARD NO.  2   EK   0     0     0     0  0.00000E+00  0.00000E+00  0.00000E+00  0.00000E+00  0.00000E+00  0.00000E+00
 ***** DATA CARD NO.  3   EX   0     1     5     0  1.00000E+00  0.00000E+00  0.00000E+00  0.00000E+00  0.00000E+00  0.00000E+00
 ***** DATA CARD NO.  4   FR   0     0     0     0  6.00000E+02  0.00000E+00  0.00000E+00  0.00000E+00  0.00000E+00  0.00000E+00
 ***** DATA CARD NO.  5   XQ   0     0     0     0  0.00000E+00  0.00000E+00  0.00000E+00  0.00000E+00  0.00000E+00  0.00000E+00




                                 - - - - - - FREQUENCY - - - - - -

                                    FREQUENCY= 6.0000E+02 MHZ
                                    WAVELENGTH= 4.9967E-01 METERS




                    APPROXIMATE INTEGRATION EMPLOYED FOR SEGMENTS MORE THAN   1.000 WAVELENGTHS APART

                    THE EXTENDED THIN WIRE KERNEL WILL BE USED



                               - - - STRUCTURE IMPEDANCE LOADING - - -

                                   THIS STRUCTURE IS NOT LOADED



                                  - - - ANTENNA ENVIRONMENT - - -

                                            FREE SPACE



                                - - - MATRIX TIMING - - -

                        FILL=    0.000 SEC.,  FACTOR=    0.000 SEC.



                                          - - - ANTENNA INPUT PARAMETERS - - -

   TAG   SEG.    VOLTAGE (VOLTS)         CURRENT (AMPS)         IMPEDANCE (OHMS)        ADMITTANCE (MHOS)      POWER
   NO.   NO.    REAL        IMAG.       REAL        IMAG.       REAL        IMAG.       REAL        IMAG.     (WATTS)
     1     5 1.00000E+00 0.00000E+00 1.39823E-02 8.47389E-04 7.12575E+01-4.31853E+00 1.39823E-02 8.47389E-04 6.99113E-03



                             - - - CURRENTS AND LOCATION - - -

                                 DISTANCES IN WAVELENGTHS


  SEG.  TAG    COORD. OF SEG. CENTER     SEG.            - - - CURRENT (AMPS) - - -
  NO.   NO.     X        Y        Z      LENGTH     REAL        IMAG.       MAG.        PHASE
     1    1   0.0000   0.0000  -0.2135  0.05337   2.7805E-03 -4.2205E-05  2.7808E-03   -0.870
     2    1   0.0000   0.0000  -0.1601  0.05337   7.3969E-03 -7.8850E-06  7.3969E-03   -0.061
     3    1   0.0000   0.0000  -0.1067  0.05337   1.0940E-02  1.7346E-04  1.0941E-02    0.908
     4    1   0.0000   0.0000  -0.0534  0.05337   1.3203E-02  5.0021E-04  1.3213E-02    2.170
     5    1   0.0000   0.0000   0.0000  0.05337   1.3982E-02  8.4739E-04  1.4008E-02    3.468
     6    1   0.0000   0.0000   0.0534  0.05337   1.3203E-02  5.0021E-04  1.3213E-02    2.170
     7    1   0.0000   0.0000   0.1067  0.05337   1.0940E-02  1.7346E-04  1.0941E-02    0.908
     8    1   0.0000   0.0000   0.1601  0.05337   7.3969E-03 -7.8850E-06  7.3969E-03   -0.061
     9    1   0.0000   0.0000   0.2135  0.05337   2.7805E-03 -4.2205E-05  2.7808E-03   -0.870



                                        - - - POWER BUDGET - - -

                                           INPUT POWER   = 6.9911E-03 WATTS
                                           RADIATED POWER= 6.9911E-03 WATTS
                                           STRUCTURE LOSS= 0.0000E+00 WATTS
                                           NETWORK LOSS  = 0.0000E+00 WATTS
                                           EFFICIENCY    = 100.00 PERCENT






 ***** DATA CARD NO.  6   FR   0    25     0     0  4.80000E+02  1.00000E+01  0.00000E+00  0.00000E+00  0.00000E+00  0.00000E+00
 ***** DATA CARD NO.  7   RP   0    73     1  1000 -1.80000E+02  0.00000E+00  5.00000E+00  0.00000E+00  0.00000E+00  0.00000E+00




                                 - - - - - - FREQUENCY - - - - - -

                                    FREQUENCY= 4.8000E+02 MHZ
                                    WAVELENGTH= 6.2458E-01 METERS




                    APPROXIMATE INTEGRATION EMPLOYED FOR SEGMENTS MORE THAN   1.000 WAVELENGTHS APART

                    THE EXTENDED THIN WIRE KERNEL WILL BE USED



                               - - - STRUCTURE IMPEDANCE LOADING - - -

                                   THIS STRUCTURE IS NOT LOADED



                                  - - - ANTENNA ENVIRONMENT - - -

                                            FREE SPACE



                                - - - MATRIX TIMING - - -

                        FILL=    0.000 SEC.,  FACTOR=    0.000 SEC.



                                          - - - ANTENNA INPUT PARAMETERS - - -

   TAG   SEG.    VOLTAGE (VOLTS)         CURRENT (AMPS)         IMPEDANCE (OHMS)        ADMITTANCE (MHOS)      POWER
   NO.   NO.    REAL        IMAG.       REAL        IMAG.       REAL        IMAG.       REAL        IMAG.     (WATTS)
     1     5 1.00000E+00 0.00000E+00 5.70947E-04 3.75475E-03 3.95828E+01-2.60311E+02 5.70947E-04 3.75475E-03 2.85473E-04



                             - - - CURRENTS AND LOCATION - - -

                                 DISTANCES IN WAVELENGTHS


  SEG.  TAG    COORD. OF SEG. CENTER     SEG.            - - - CURRENT (AMPS) - - -
  NO.   NO.     X        Y        Z      LENGTH     REAL        IMAG.       MAG.        PHASE
     1    1   0.0000   0.0000  -0.1708  0.04270   1.2107E-04  6.2641E-04  6.3801E-04   79.061
     2    1   0.0000   0.0000  -0.1281  0.04270   3.1299E-04  1.6959E-03  1.7246E-03   79.544
     3    1   0.0000   0.0000  -0.0854  0.04270   4.5374E-04  2.5974E-03  2.6367E-03   80.091
     4    1   0.0000   0.0000  -0.0427  0.04270   5.4122E-04  3.3221E-03  3.3659E-03   80.747
     5    1   0.0000   0.0000   0.0000  0.04270   5.7095E-04  3.7547E-03  3.7979E-03   81.354
     6    1   0.0000   0.0000   0.0427  0.04270   5.4122E-04  3.3221E-03  3.3659E-03   80.747
     7    1   0.0000   0.0000   0.0854  0.04270   4.5374E-04  2.5974E-03  2.6367E-03   80.091
     8    1   0.0000   0.0000   0.1281  0.04270   3.1299E-04  1.6959E-03  1.7246E-03   79.544
     9    1   0.0000   0.0000   0.1708  0.04270   1.2107E-04  6.2641E-04  6.3801E-04   79.061



                                        - - - POWER BUDGET - - -

                                           INPUT POWER   = 2.8547E-04 WATTS
                                           RADIATED POWER= 2.8547E-04 WATTS
                                           STRUCTURE LOSS= 0.0000E+00 WATTS
                                           NETWORK LOSS  = 0.0000E+00 WATTS
                                           EFFICIENCY    = 100.00 PERCENT



                                                - - - RADIATION PATTERNS - - -

  - - ANGLES - -           - POWER GAINS -       - - - POLARIZATION - - -    - - - E(THETA) - - -    - - - E(PHI) - - -
  THETA     PHI        VERT.   HOR.    TOTAL      AXIAL     TILT   SENSE     MAGNITUDE    PHASE      MAGNITUDE    PHASE 
 DEGREES  DEGREES       DB      DB      DB        RATIO     DEG.              VOLTS/M    DEGREES      VOLTS/M    DEGREES
 -180.00     0.00    -999.99 -999.99 -999.99    0.00000     0.00            1.45954E-12   170.49    0.00000E+00     0.00
 -175.00     0.00     -20.41 -999.99  -20.41    0.00000     0.00  LINEAR    1.24763E-02    -9.51    0.00000E+00     0.00
 -170.00     0.00     -14.40 -999.99  -14.40    0.00000     0.00  LINEAR    2.49366E-02    -9.51    0.00000E+00     0.00
 -165.00     0.00     -10.89 -999.99  -10.89    0.00000     0.00  LINEAR    3.73602E-02    -9.51    0.00000E+00     0.00
 -160.00     0.00      -8.40 -999.99   -8.40    0.00000     0.00  LINEAR    4.97174E-02    -9.52    0.00000E+00     0.00
 -155.00     0.00      -6.49 -999.99   -6.49    0.00000     0.00  LINEAR    6.19655E-02    -9.53    0.00000E+00     0.00
 -150.00     0.00      -4.94 -999.99   -4.94    0.00000     0.00  LINEAR    7.40458E-02    -9.53    0.00000E+00     0.00
 -145.00     0.00      -3.66 -999.99   -3.66    0.00000     0.00  LINEAR    8.58810E-02    -9.54    0.00000E+00     0.00
 -140.00     0.00      -2.57 -999.99   -2.57    0.00000     0.00  LINEAR    9.73752E-02    -9.55    0.00000E+00     0.00
 -135.00     0.00      -1.63 -999.99   -1.63    0.00000     0.00  LINEAR    1.08414E-01    -9.56    0.00000E+00     0.00
 -130.00     0.00      -0.83 -999.99   -0.83    0.00000     0.00  LINEAR    1.18865E-01    -9.57    0.00000E+00     0.00
 -125.00     0.00      -0.15 -999.99   -0.15    0.00000     0.00  LINEAR    1.28587E-01    -9.58    0.00000E+00     0.00
 -120.00     0.00       0.43 -999.99    0.43    0.00000     0.00  LINEAR    1.37425E-01    -9.58    0.00000E+00     0.00
 -115.00     0.00       0.91 -999.99    0.91    0.00000     0.00  LINEAR    1.45229E-01    -9.59    0.00000E+00     0.00
 -110.00     0.00       1.29 -999.99    1.29    0.00000     0.00  LINEAR    1.51851E-01    -9.60    0.00000E+00     0.00
 -105.00     0.00       1.59 -999.99    1.59    0.00000     0.00  LINEAR    1.57157E-01    -9.60    0.00000E+00     0.00
 -100.00     0.00       1.80 -999.99    1.80    0.00000     0.00  LINEAR    1.61034E-01    -9.61    0.00000E+00     0.00
  -95.00     0.00       1.93 -999.99    1.93    0.00000     0.00  LINEAR    1.63396E-01    -9.61    0.00000E+00     0.00
  -90.00     0.00       1.97 -999.99    1.97    0.00000     0.00  LINEAR    1.64189E-01    -9.61    0.00000E+00     0.00
  -85.00     0.00       1.93 -999.99    1.93    0.00000     0.00  LINEAR    1.63396E-01    -9.61    0.00000E+00     0.00
  -80.00     0.00       1.80 -999.99    1.80    0.00000     0.00  LINEAR    1.61034E-01    -9.61    0.00000E+00     0.00
  -75.00     0.00       1.59 -999.99    1.59    0.00000     0.00  LINEAR    1.57157E-01    -9.60    0.00000E+00     0.00
  -70.00     0.00       1.29 -999.99    1.29    0.00000     0.00  LINEAR    1.51851E-01    -9.60    0.00000E+00     0.00
  -65.00     0.00       0.91 -999.99    0.91    0.00000     0.00  LINEAR    1.45229E-01    -9.59    0.00000E+00     0.00
  -60.00     0.00       0.43 -999.99    0.43    0.00000     0.00  LINEAR    1.37425E-01    -9.58    0.00000E+00     0.00
  -55.00     0.00      -0.15 -999.99   -0.15    0.00000     0.00  LINEAR    1.28587E-01    -9.58    0.00000E+00     0.00
  -50.00     0.00      -0.83 -999.99   -0.83    0.00000     0.00  LINEAR    1.18865E-01    -9.57    0.00000E+00     0.00
  -45.00     0.00      -1.63 -999.99   -1.63    0.00000     0.00  LINEAR    1.08414E-01    -9.56    0.00000E+00     0.00
  -40.00     0.00      -2.57 -999.99   -2.57    0.00000     0.00  LINEAR    9.73752E-02    -9.55    0.00000E+00     0.00
  -35.00     0.00      -3.66 -999.99   -3.66    0.00000     0.00  LINEAR    8.58810E-02    -9.54    0.00000E+00     0.00
  -30.00     0.00      -4.94 -999.99   -4.94    0.00000     0.00  LINEAR    7.40458E-02    -9.53    0.00000E+00     0.00
  -25.00     0.00      -6.49 -999.99   -6.49    0.00000     0.00  LINEAR    6.19655E-02    -9.53    0.00000E+00     0.00
  -20.00     0.00      -8.40 -999.99   -8.40    0.00000     0.00  LINEAR    4.97174E-02    -9.52    0.00000E+00     0.00
  -15.00     0.00     -10.89 -999.99  -10.89    0.00000     0.00  LINEAR    3.73602E-02    -9.51    0.00000E+00     0.00
  -10.00     0.00     -14.40 -999.99  -14.40    0.00000     0.00  LINEAR    2.49366E-02    -9.51    0.00000E+00     0.00
   -5.00     0.00     -20.41 -999.99  -20.41    0.00000     0.00  LINEAR    1.24763E-02    -9.51    0.00000E+00     0.00
    0.00     0.00    -999.99 -999.99 -999.99    0.00000     0.00            0.00000E+00     0.00    0.00000E+00     0.00
    5.00     0.00     -20.41 -999.99  -20.41    0.00000     0.00  LINEAR    1.24763E-02   170.49    0.00000E+00     0.00
   10.00     0.00     -14.40 -999.99  -14.40    0.00000     0.00  LINEAR    2.49366E-02   170.49    0.00000E+00     0.00
   15.00     0.00     -10.89 -999.99  -10.89    0.00000     0.00  LINEAR    3.73602E-02   170.49    0.00000E+00     0.00
   20.00     0.00      -8.40 -999.99   -8.40    0.00000     0.00  LINEAR    4.97174E-02   170.48    0.00000E+00     0.00
   25.00     0.00      -6.49 -999.99   -6.49    0.00000     0.00  LINEAR    6.19655E-02   170.47    0.00000E+00     0.00
   30.00     0.00      -4.94 -999.99   -4.94    0.00000     0.00  LINEAR    7.40458E-02   170.47    0.00000E+00     0.00
   35.00     0.00      -3.66 -999.99   -3.66    0.00000     0.00  LINEAR    8.58810E-02   170.46    0.00000E+00     0.00
   40.00     0.00      -2.57 -999.99   -2.57    0.00000     0.00  LINEAR    9.73752E-02   170.45    0.00000E+00     0.00
   45.00     0.00      -1.63 -999.99   -1.63    0.00000     0.00  LINEAR    1.08414E-01   170.44    0.00000E+00     0.00
   50.00     0.00      -0.83 -999.99   -0.83    0.00000     0.00  LINEAR    1.18865E-01   170.43    0.00000E+00     0.00
   55.00     0.00      -0.15 -999.99   -0.15    0.00000     0.00  LINEAR    1.28587E-01   170.42    0.00000E+00     0.00
   60.00     0.00       0.43 -999.99    0.43    0.00000     0.00  LINEAR    1.37425E-01   170.42    0.00000E+00     0.00
   65.00     0.00       0.91 -999.99    0.91    0.00000     0.00  LINEAR    1.45229E-01   170.41    0.00000E+00     0.00
   70.00     0.00       1.29 -999.99    1.29    0.00000     0.00  LINEAR    1.51851E-01   170.40    0.00000E+00     0.00
   75.00     0.00       1.59 -999.99    1.59    0.00000     0.00  LINEAR    1.57157E-01   170.40    0.00000E+00     0.00
   80.00     0.00       1.80 -999.99    1.80    0.00000     0.00  LINEAR    1.61034E-01   170.39    0.00000E+00     0.00
   85.00     0.00       1.93 -999.99    1.93    0.00000     0.00  LINEAR    1.63396E-01   170.39    0.00000E+00     0.00
   90.00     0.00       1.97 -999.99    1.97    0.00000     0.00  LINEAR    1.64189E-01   170.39    0.00000E+00     0.00
   95.00     0.00       1.93 -999.99    1.93    0.00000     0.00  LINEAR    1.63396E-01   170.39    0.00000E+00     0.00
  100.00     0.00       1.80 -999.99    1.80    0.00000     0.00  LINEAR    1.61034E-01   170.39    0.00000E+00     0.00
  105.00     0.00       1.59 -999.99    1.59    0.00000     0.00  LINEAR    1.57157E-01   170.40    0.00000E+00     0.00
  110.00     0.00       1.29 -999.99    1.29    0.00000     0.00  LINEAR    1.51851E-01   170.40    0.00000E+00     0.00
  115.00     0.00       0.91 -999.99    0.91    0.00000     0.00  LINEAR    1.45229E-01   170.41    0.00000E+00     0.00
  120.00     0.00       0.43 -999.99    0.43    0.00000     0.00  LINEAR    1.37425E-01   170.42    0.00000E+00     0.00
  125.00     0.00      -0.15 -999.99   -0.15    0.00000     0.00  LINEAR    1.28587E-01   170.42    0.00000E+00     0.00
  130.00     0.00      -0.83 -999.99   -0.83    0.00000     0.00  LINEAR    1.18865E-01   170.43    0.00000E+00     0.00
  135.00     0.00      -1.63 -999.99   -1.63    0.00000     0.00  LINEAR    1.08414E-01   170.44    0.00000E+00     0.00
  140.00     0.00      -2.57 -999.99   -2.57    0.00000     0.00  LINEAR    9.73752E-02   170.45    0.00000E+00     0.00
  145.00     0.00      -3.66 -999.99   -3.66    0.00000     0.00  LINEAR    8.58810E-02   170.46    0.00000E+00     0.00
  150.00     0.00      -4.94 -999.99   -4.94    0.00000     0.00  LINEAR    7.40458E-02   170.47    0.00000E+00     0.00
  155.00     0.00      -6.49 -999.99   -6.49    0.00000     0.00  LINEAR    6.19655E-02   170.47    0.00000E+00     0.00
  160.00     0.00      -8.40 -999.99   -8.40    0.00000     0.00  LINEAR    4.97174E-02   170.48    0.00000E+00     0.00
  165.00     0.00     -10.89 -999.99  -10.89    0.00000     0.00  LINEAR    3.73602E-02   170.49    0.00000E+00     0.00
  170.00     0.00     -14.40 -999.99  -14.40    0.00000     0.00  LINEAR    2.49366E-02   170.49    0.00000E+00     0.00
  175.00     0.00     -20.41 -999.99  -20.41    0.00000     0.00  LINEAR    1.24763E-02   170.49    0.00000E+00     0.00
  180.00     0.00    -999.99 -999.99 -999.99    0.00000     0.00            1.45954E-12    -9.51    0.00000E+00     0.00




                                 - - - - - - FREQUENCY - - - - - -

                                    FREQUENCY= 4.9000E+02 MHZ
                                    WAVELENGTH= 6.1184E-01 METERS




                    APPROXIMATE INTEGRATION EMPLOYED FOR SEGMENTS MORE THAN   1.000 WAVELENGTHS APART

                    THE EXTENDED THIN WIRE KERNEL WILL BE USED



                               - - - STRUCTURE IMPEDANCE LOADING - - -

                                   THIS STRUCTURE IS NOT LOADED



                                  - - - ANTENNA ENVIRONMENT - - -

                                            FREE SPACE



                                - - - MATRIX TIMING - - -

                        FILL=    0.000 SEC.,  FACTOR=    0.000 SEC.



                                          - - - ANTENNA INPUT PARAMETERS - - -

   TAG   SEG.    VOLTAGE (VOLTS)         CURRENT (AMPS)         IMPEDANCE (OHMS)        ADMITTANCE (MHOS)      POWER
   NO.   NO.    REAL        IMAG.       REAL        IMAG.       REAL        IMAG.       REAL        IMAG.     (WATTS)
     1     5 1.00000E+00 0.00000E+00 7.17836E-04 4.08796E-03 4.16699E+01-2.37304E+02 7.17836E-04 4.08796E-03 3.58918E-04



