1



                                 *********************************************

                                    NUMERICAL ELECTROMAGNETICS CODE (NEC-2D)

                                 *********************************************




                                     - - - - COMMENTS - - - -


                          Antena dipolo com freqÍncia de 600MHz                                      
                                                                                                     
                                                                                                     
                                                                                                     




                                 - - - STRUCTURE SPECIFICATION - - -

                                     COORDINATES MUST BE INPUT IN
                                     METERS OR BE SCALED TO METERS
                                     BEFORE STRUCTURE INPUT IS ENDED


  WIRE                                                                               NO. OF    FIRST  LAST     TAG
  NO.        X1         Y1         Z1          X2         Y2         Z2      RADIUS   SEG.     SEG.   SEG.     NO.
     1    0.00000    0.00000   -0.12000     0.00000    0.00000    0.12000    0.00010      9        1     9       1

   TOTAL SEGMENTS USED=    9     NO. SEG. IN A SYMMETRIC CELL=    9     SYMMETRY FLAG=  0


         - MULTIPLE WIRE JUNCTIONS -
 JUNCTION    SEGMENTS  (- FOR END 1, + FOR END 2)
  NONE




                                 - - - - SEGMENTATION DATA - - - -

                                        COORDINATES IN METERS

                         I+ AND I- INDICATE THE SEGMENTS BEFORE AND AFTER I


  SEG.   COORDINATES OF SEG. CENTER     SEG.     ORIENTATION ANGLES    WIRE    CONNECTION DATA   TAG
  NO.       X         Y         Z       LENGTH     ALPHA     BETA      RADIUS    I-   I    I+    NO.
     1   0.00000   0.00000  -0.10667   0.02667   90.00000   0.00000   0.00010     0    1    2      1
     2   0.00000   0.00000  -0.08000   0.02667   90.00000   0.00000   0.00010     1    2    3      1
     3   0.00000   0.00000  -0.05333   0.02667   90.00000   0.00000   0.00010     2    3    4      1
     4   0.00000   0.00000  -0.02667   0.02667   90.00000   0.00000   0.00010     3    4    5      1
     5   0.00000   0.00000   0.00000   0.02667   90.00000   0.00000   0.00010     4    5    6      1
     6   0.00000   0.00000   0.02667   0.02667   90.00000   0.00000   0.00010     5    6    7      1
     7   0.00000   0.00000   0.05333   0.02667   90.00000   0.00000   0.00010     6    7    8      1
     8   0.00000   0.00000   0.08000   0.02667   90.00000   0.00000   0.00010     7    8    9      1
     9   0.00000   0.00000   0.10667   0.02667   90.00000   0.00000   0.00010     8    9    0      1






 ***** DATA CARD NO.  1   GN  -1     0     0     0  0.00000E+00  0.00000E+00  0.00000E+00  0.00000E+00  0.00000E+00  0.00000E+00
 ***** DATA CARD NO.  2   EK   0     0     0     0  0.00000E+00  0.00000E+00  0.00000E+00  0.00000E+00  0.00000E+00  0.00000E+00
 ***** DATA CARD NO.  3   EX   0     1     5     0  1.00000E+00  0.00000E+00  0.00000E+00  0.00000E+00  0.00000E+00  0.00000E+00
 ***** DATA CARD NO.  4   FR   0     0     0     0  6.00000E+02  0.00000E+00  0.00000E+00  0.00000E+00  0.00000E+00  0.00000E+00
 ***** DATA CARD NO.  5   NE   0   101   101     1 -1.00000E+00 -2.00000E+00  0.00000E+00  5.00000E-02  4.00000E-02  1.00000E+00




                                 - - - - - - FREQUENCY - - - - - -

                                    FREQUENCY= 6.0000E+02 MHZ
                                    WAVELENGTH= 4.9967E-01 METERS




                    APPROXIMATE INTEGRATION EMPLOYED FOR SEGMENTS MORE THAN   1.000 WAVELENGTHS APART

                    THE EXTENDED THIN WIRE KERNEL WILL BE USED



                               - - - STRUCTURE IMPEDANCE LOADING - - -

                                   THIS STRUCTURE IS NOT LOADED



                                  - - - ANTENNA ENVIRONMENT - - -

                                            FREE SPACE



                                - - - MATRIX TIMING - - -

                        FILL=    0.000 SEC.,  FACTOR=    0.000 SEC.



                                          - - - ANTENNA INPUT PARAMETERS - - -

   TAG   SEG.    VOLTAGE (VOLTS)         CURRENT (AMPS)         IMPEDANCE (OHMS)        ADMITTANCE (MHOS)      POWER
   NO.   NO.    REAL        IMAG.       REAL        IMAG.       REAL        IMAG.       REAL        IMAG.     (WATTS)
     1     5 1.00000E+00 0.00000E+00 1.39823E-02 8.47389E-04 7.12575E+01-4.31853E+00 1.39823E-02 8.47389E-04 6.99113E-03



                             - - - CURRENTS AND LOCATION - - -

                                 DISTANCES IN WAVELENGTHS


  SEG.  TAG    COORD. OF SEG. CENTER     SEG.            - - - CURRENT (AMPS) - - -
  NO.   NO.     X        Y        Z      LENGTH     REAL        IMAG.       MAG.        PHASE
     1    1   0.0000   0.0000  -0.2135  0.05337   2.7805E-03 -4.2205E-05  2.7808E-03   -0.870
     2    1   0.0000   0.0000  -0.1601  0.05337   7.3969E-03 -7.8850E-06  7.3969E-03   -0.061
     3    1   0.0000   0.0000  -0.1067  0.05337   1.0940E-02  1.7346E-04  1.0941E-02    0.908
     4    1   0.0000   0.0000  -0.0534  0.05337   1.3203E-02  5.0021E-04  1.3213E-02    2.170
     5    1   0.0000   0.0000   0.0000  0.05337   1.3982E-02  8.4739E-04  1.4008E-02    3.468
     6    1   0.0000   0.0000   0.0534  0.05337   1.3203E-02  5.0021E-04  1.3213E-02    2.170
     7    1   0.0000   0.0000   0.1067  0.05337   1.0940E-02  1.7346E-04  1.0941E-02    0.908
     8    1   0.0000   0.0000   0.1601  0.05337   7.3969E-03 -7.8850E-06  7.3969E-03   -0.061
     9    1   0.0000   0.0000   0.2135  0.05337   2.7805E-03 -4.2205E-05  2.7808E-03   -0.870



                                        - - - POWER BUDGET - - -

                                           INPUT POWER   = 6.9911E-03 WATTS
                                           RADIATED POWER= 6.9911E-03 WATTS
                                           STRUCTURE LOSS= 0.0000E+00 WATTS
                                           NETWORK LOSS  = 0.0000E+00 WATTS
                                           EFFICIENCY    = 100.00 PERCENT



                                   - - - NEAR ELECTRIC FIELDS - - -

            -  LOCATION  -                     -  EX  -               -  EY  -               -  EZ  -
        X          Y          Z          MAGNITUDE   PHASE      MAGNITUDE   PHASE      MAGNITUDE   PHASE
      METERS     METERS     METERS        VOLTS/M   DEGREES      VOLTS/M   DEGREES      VOLTS/M   DEGREES
      -1.0000    -2.0000     0.0000     1.0788E-11  -112.23    2.1576E-11  -112.23    3.6876E-01    97.93
      -0.9500    -2.0000     0.0000     1.0556E-11   -96.52    2.2224E-11   -96.52    3.7240E-01   113.69
      -0.9000    -2.0000     0.0000     1.0291E-11   -81.46    2.2868E-11   -81.46    3.7595E-01   128.78
      -0.8500    -2.0000     0.0000     9.9905E-12   -67.09    2.3507E-11   -67.09    3.7940E-01   143.20
      -0.8000    -2.0000     0.0000     9.6549E-12   -53.42    2.4137E-11   -53.42    3.8275E-01   156.91
      -0.7500    -2.0000     0.0000     9.2832E-12   -40.47    2.4755E-11   -40.47    3.8598E-01   169.91
      -0.7000    -2.0000     0.0000     8.8752E-12   -28.25    2.5358E-11   -28.25    3.8907E-01  -177.84
      -0.6500    -2.0000     0.0000     8.4308E-12   -16.79    2.5941E-11   -16.79    3.9202E-01  -166.34
      -0.6000    -2.0000     0.0000     7.9503E-12    -6.10    2.6501E-11    -6.10    3.9481E-01  -155.61
      -0.5500    -2.0000     0.0000     7.4345E-12     3.81    2.7034E-11     3.81    3.9742E-01  -145.68
      -0.5000    -2.0000     0.0000     6.8843E-12    12.90    2.7537E-11    12.90    3.9986E-01  -136.55
      -0.4500    -2.0000     0.0000     6.3013E-12    21.18    2.8006E-11    21.18    4.0211E-01  -128.24
      -0.4000    -2.0000     0.0000     5.6873E-12    28.63    2.8436E-11    28.63    4.0415E-01  -120.77
      -0.3500    -2.0000     0.0000     5.0445E-12    35.24    2.8826E-11    35.24    4.0598E-01  -114.14
      -0.3000    -2.0000     0.0000     4.3755E-12    40.98    2.9170E-11    40.98    4.0758E-01  -108.38
      -0.2500    -2.0000     0.0000     3.6834E-12    45.86    2.9467E-11    45.86    4.0895E-01  -103.48
      -0.2000    -2.0000     0.0000     2.9714E-12    49.87    2.9714E-11    49.87    4.1008E-01   -99.46
      -0.1500    -2.0000     0.0000     2.2431E-12    52.99    2.9908E-11    52.99    4.1097E-01   -96.33
      -0.1000    -2.0000     0.0000     1.5024E-12    55.23    3.0048E-11    55.23    4.1161E-01   -94.08
      -0.0500    -2.0000     0.0000     7.5331E-13    56.57    3.0132E-11    56.57    4.1199E-01   -92.74
       0.0000    -2.0000     0.0000     4.8135E-27  -122.98    3.0161E-11    57.02    4.1212E-01   -92.29
       0.0500    -2.0000     0.0000     7.5331E-13  -123.43    3.0132E-11    56.57    4.1199E-01   -92.74
       0.1000    -2.0000     0.0000     1.5024E-12  -124.77    3.0048E-11    55.23    4.1161E-01   -94.08
       0.1500    -2.0000     0.0000     2.2431E-12  -127.01    2.9908E-11    52.99    4.1097E-01   -96.33
       0.2000    -2.0000     0.0000     2.9714E-12  -130.13    2.9714E-11    49.87    4.1008E-01   -99.46
       0.2500    -2.0000     0.0000     3.6834E-12  -134.14    2.9467E-11    45.86    4.0895E-01  -103.48
       0.3000    -2.0000     0.0000     4.3755E-12  -139.02    2.9170E-11    40.98    4.0758E-01  -108.38
       0.3500    -2.0000     0.0000     5.0445E-12  -144.76    2.8826E-11    35.24    4.0598E-01  -114.14
       0.4000    -2.0000     0.0000     5.6873E-12  -151.37    2.8436E-11    28.63    4.0415E-01  -120.77
       0.4500    -2.0000     0.0000     6.3013E-12  -158.82    2.8006E-11    21.18    4.0211E-01  -128.24
       0.5000    -2.0000     0.0000     6.8843E-12  -167.10    2.7537E-11    12.90    3.9986E-01  -136.55
       0.5500    -2.0000     0.0000     7.4345E-12  -176.19    2.7034E-11     3.81    3.9742E-01  -145.68
       0.6000    -2.0000     0.0000     7.9503E-12   173.90    2.6501E-11    -6.10    3.9481E-01  -155.61
       0.6500    -2.0000     0.0000     8.4308E-12   163.21    2.5941E-11   -16.79    3.9202E-01  -166.34
       0.7000    -2.0000     0.0000     8.8752E-12   151.75    2.5358E-11   -28.25    3.8907E-01  -177.84
       0.7500    -2.0000     0.0000     9.2832E-12   139.53    2.4755E-11   -40.47    3.8598E-01   169.91
       0.8000    -2.0000     0.0000     9.6549E-12   126.58    2.4137E-11   -53.42    3.8275E-01   156.91
       0.8500    -2.0000     0.0000     9.9905E-12   112.91    2.3507E-11   -67.09    3.7940E-01   143.20
       0.9000    -2.0000     0.0000     1.0291E-11    98.54    2.2868E-11   -81.46    3.7595E-01   128.78
       0.9500    -2.0000     0.0000     1.0556E-11    83.48    2.2224E-11   -96.52    3.7240E-01   113.69
       1.0000    -2.0000     0.0000     1.0788E-11    67.77    2.1576E-11  -112.23    3.6876E-01    97.93
       1.0500    -2.0000     0.0000     1.0988E-11    51.41    2.0929E-11  -128.59    3.6505E-01    81.52
       1.1000    -2.0000     0.0000     1.1156E-11    34.43    2.0284E-11  -145.57    3.6128E-01    64.49
       1.1500    -2.0000     0.0000     1.1295E-11    16.84    1.9644E-11  -163.16    3.5745E-01    46.86
       1.2000    -2.0000     0.0000     1.1406E-11    -1.33    1.9011E-11   178.67    3.5358E-01    28.64
       1.2500    -2.0000     0.0000     1.1491E-11   -20.07    1.8386E-11   159.93    3.4968E-01     9.85
       1.3000    -2.0000     0.0000     1.1551E-11   -39.36    1.7771E-11   140.64    3.4575E-01    -9.49
       1.3500    -2.0000     0.0000     1.1588E-11   -59.18    1.7168E-11   120.82    3.4180E-01   -29.36
       1.4000    -2.0000     0.0000     1.1604E-11   -79.51    1.6577E-11   100.49    3.3785E-01   -49.74
       1.4500    -2.0000     0.0000     1.1599E-11  -100.34    1.5999E-11    79.66    3.3389E-01   -70.61
       1.5000    -2.0000     0.0000     1.1577E-11  -121.64    1.5436E-11    58.36    3.2994E-01   -91.97
       1.5500    -2.0000     0.0000     1.1538E-11  -143.41    1.4887E-11    36.59    3.2599E-01  -113.78
       1.6000    -2.0000     0.0000     1.1483E-11  -165.62    1.4354E-11    14.38    3.2207E-01  -136.04
       1.6500    -2.0000     0.0000     1.1415E-11   171.74    1.3836E-11    -8.26    3.1816E-01  -158.73
       1.7000    -2.0000     0.0000     1.1334E-11   148.68    1.3335E-11   -31.32    3.1428E-01   178.16
       1.7500    -2.0000     0.0000     1.1243E-11   125.23    1.2849E-11   -54.77    3.1042E-01   154.66
       1.8000    -2.0000     0.0000     1.1141E-11   101.39    1.2379E-11   -78.61    3.0660E-01   130.78
       1.8500    -2.0000     0.0000     1.1031E-11    77.18    1.1925E-11  -102.82    3.0282E-01   106.52
       1.9000    -2.0000     0.0000     1.0912E-11    52.62    1.1487E-11  -127.38    2.9907E-01    81.91
       1.9500    -2.0000     0.0000     1.0788E-11    27.71    1.1064E-11  -152.29    2.9537E-01    56.95
       2.0000    -2.0000     0.0000     1.0657E-11     2.46    1.0657E-11  -177.54    2.9171E-01    31.67
       2.0500    -2.0000     0.0000     1.0521E-11   -23.10    1.0264E-11   156.90    2.8809E-01     6.06
       2.1000    -2.0000     0.0000     1.0381E-11   -48.96    9.8867E-12   131.04    2.8452E-01   -19.85
       2.1500    -2.0000     0.0000     1.0238E-11   -75.13    9.5233E-12   104.87    2.8100E-01   -46.06
       2.2000    -2.0000     0.0000     1.0091E-11  -101.58    9.1738E-12    78.42    2.7753E-01   -72.55
       2.2500    -2.0000     0.0000     9.9426E-12  -128.30    8.8379E-12    51.70    2.7411E-01   -99.32
       2.3000    -2.0000     0.0000     9.7924E-12  -155.30    8.5151E-12    24.70    2.7074E-01  -126.35
       2.3500    -2.0000     0.0000     9.6409E-12   177.46    8.2050E-12    -2.54    2.6742E-01  -153.64
       2.4000    -2.0000     0.0000     9.4887E-12   149.97    7.9072E-12   -30.03    2.6415E-01   178.83
       2.4500    -2.0000     0.0000     9.3361E-12   122.24    7.6213E-12   -57.76    2.6093E-01   151.06
       2.5000    -2.0000     0.0000     9.1835E-12    94.28    7.3468E-12   -85.72    2.5777E-01   123.06
       2.5500    -2.0000     0.0000     9.0313E-12    66.10    7.0833E-12  -113.90    2.5466E-01    94.84
       2.6000    -2.0000     0.0000     8.8797E-12    37.71    6.8305E-12  -142.29    2.5160E-01    66.41
       2.6500    -2.0000     0.0000     8.7289E-12     9.11    6.5879E-12  -170.89    2.4859E-01    37.78
       2.7000    -2.0000     0.0000     8.5793E-12   -19.68    6.3550E-12   160.32    2.4563E-01     8.95
       2.7500    -2.0000     0.0000     8.4310E-12   -48.67    6.1316E-12   131.33    2.4272E-01   -20.07
       2.8000    -2.0000     0.0000     8.2841E-12   -77.84    5.9172E-12   102.16    2.3986E-01   -49.28
       2.8500    -2.0000     0.0000     8.1389E-12  -107.19    5.7115E-12    72.81    2.3706E-01   -78.66
       2.9000    -2.0000     0.0000     7.9955E-12  -136.70    5.5141E-12    43.30    2.3430E-01  -108.22
       2.9500    -2.0000     0.0000     7.8539E-12  -166.39    5.3247E-12    13.61    2.3159E-01  -137.93
       3.0000    -2.0000     0.0000     7.7143E-12   163.77    5.1429E-12   -16.23    2.2893E-01  -167.81
       3.0500    -2.0000     0.0000     7.5768E-12   133.77    4.9684E-12   -46.23    2.2631E-01   162.16
       3.1000    -2.0000     0.0000     7.4414E-12   103.62    4.8009E-12   -76.38    2.2374E-01   131.98
       3.1500    -2.0000     0.0000     7.3082E-12    73.32    4.6401E-12  -106.68    2.2122E-01   101.65
       3.2000    -2.0000     0.0000     7.1772E-12    42.89    4.4857E-12  -137.11    2.1874E-01    71.19
       3.2500    -2.0000     0.0000     7.0484E-12    12.32    4.3375E-12  -167.68    2.1631E-01    40.59
       3.3000    -2.0000     0.0000     6.9220E-12   -18.38    4.1951E-12   161.62    2.1392E-01     9.86
       3.3500    -2.0000     0.0000     6.7978E-12   -49.20    4.0584E-12   130.80    2.1158E-01   -20.99
       3.4000    -2.0000     0.0000     6.6759E-12   -80.15    3.9270E-12    99.85    2.0927E-01   -51.97
       3.4500    -2.0000     0.0000     6.5564E-12  -111.21    3.8008E-12    68.79    2.0701E-01   -83.06
       3.5000    -2.0000     0.0000     6.4391E-12  -142.39    3.6795E-12    37.61    2.0478E-01  -114.27
       3.5500    -2.0000     0.0000     6.3241E-12  -173.68    3.5629E-12     6.32    2.0260E-01  -145.59
       3.6000    -2.0000     0.0000     6.2114E-12   154.92    3.4508E-12   -25.08    2.0046E-01  -177.01
       3.6500    -2.0000     0.0000     6.1010E-12   123.42    3.3430E-12   -56.58    1.9835E-01   151.46
       3.7000    -2.0000     0.0000     5.9928E-12    91.82    3.2394E-12   -88.18    1.9628E-01   119.84
       3.7500    -2.0000     0.0000     5.8868E-12    60.12    3.1396E-12  -119.88    1.9425E-01    88.11
       3.8000    -2.0000     0.0000     5.7830E-12    28.32    3.0437E-12  -151.68    1.9225E-01    56.29
       3.8500    -2.0000     0.0000     5.6814E-12    -3.56    2.9514E-12   176.44    1.9029E-01    24.38
       3.9000    -2.0000     0.0000     5.5818E-12   -35.54    2.8625E-12   144.46    1.8836E-01    -7.62
       3.9500    -2.0000     0.0000     5.4844E-12   -67.60    2.7769E-12   112.40    1.8647E-01   -39.70
       4.0000    -2.0000     0.0000     5.3890E-12   -99.74    2.6945E-12    80.26    1.8461E-01   -71.87
      -1.0000    -1.9600     0.0000     1.1322E-11   -86.62    2.2192E-11   -86.62    3.7472E-01   123.61
      -0.9500    -1.9600     0.0000     1.1090E-11   -70.65    2.2880E-11   -70.65    3.7854E-01   139.63
      -0.9000    -1.9600     0.0000     1.0821E-11   -55.35    2.3566E-11   -55.35    3.8227E-01   154.98
      -0.8500    -1.9600     0.0000     1.0515E-11   -40.74    2.4247E-11   -40.74    3.8591E-01   169.64
      -0.8000    -1.9600     0.0000     1.0172E-11   -26.83    2.4920E-11   -26.83    3.8943E-01  -176.41
      -0.7500    -1.9600     0.0000     9.7889E-12   -13.65    2.5582E-11   -13.65    3.9283E-01  -163.19
      -0.7000    -1.9600     0.0000     9.3668E-12    -1.21    2.6227E-11    -1.21    3.9609E-01  -150.72
      -0.6500    -1.9600     0.0000     8.9052E-12    10.46    2.6853E-11    10.46    3.9920E-01  -139.01
      -0.6000    -1.9600     0.0000     8.4044E-12    21.34    2.7454E-11    21.34    4.0215E-01  -128.08
      -0.5500    -1.9600     0.0000     7.8651E-12    31.43    2.8028E-11    31.43    4.0492E-01  -117.96
      -0.5000    -1.9600     0.0000     7.2882E-12    40.70    2.8570E-11    40.70    4.0750E-01  -108.66
      -0.4500    -1.9600     0.0000     6.6754E-12    49.14    2.9075E-11    49.14    4.0988E-01  -100.19
      -0.4000    -1.9600     0.0000     6.0285E-12    56.73    2.9540E-11    56.73    4.1204E-01   -92.57
      -0.3500    -1.9600     0.0000     5.3500E-12    63.46    2.9960E-11    63.46    4.1397E-01   -85.82
      -0.3000    -1.9600     0.0000     4.6428E-12    69.32    3.0333E-11    69.32    4.1568E-01   -79.94
      -0.2500    -1.9600     0.0000     3.9100E-12    74.30    3.0654E-11    74.30    4.1713E-01   -74.94
      -0.2000    -1.9600     0.0000     3.1552E-12    78.38    3.0921E-11    78.38    4.1833E-01   -70.84
      -0.1500    -1.9600     0.0000     2.3825E-12    81.57    3.1132E-11    81.57    4.1928E-01   -67.64
      -0.1000    -1.9600     0.0000     1.5961E-12    83.85    3.1283E-11    83.85    4.1995E-01   -65.36
      -0.0500    -1.9600     0.0000     8.0039E-13    85.22    3.1375E-11    85.22    4.2036E-01   -63.98
       0.0000    -1.9600     0.0000     5.1145E-27   -94.33    3.1406E-11    85.67    4.2050E-01   -63.52
       0.0500    -1.9600     0.0000     8.0039E-13   -94.78    3.1375E-11    85.22    4.2036E-01   -63.98
       0.1000    -1.9600     0.0000     1.5961E-12   -96.15    3.1283E-11    83.85    4.1995E-01   -65.36
       0.1500    -1.9600     0.0000     2.3825E-12   -98.43    3.1132E-11    81.57    4.1928E-01   -67.64
